
T158C 000:276 SEGGER J-Link V4.54a Log File (0001ms, 0277ms total)
T158C 000:276 DLL Compiled: Sep 17 2012 15:58:45 (0001ms, 0277ms total)
T158C 000:276 Logging started @ 2015-09-02 17:01 (0001ms, 0277ms total)
T158C 000:277 JLINK_SetWarnOutHandler(...) (0000ms, 0277ms total)
T158C 000:277 JLINK_OpenEx(...)
Firmware: J-Link ARM V8 compiled Aug  1 2012 13:40:47
Hardware: V8.00
S/N: 270676280
Feature(s): RDI,FlashDL,FlashBP,JFlash,GDBFULL  returns O.K. (0029ms, 0306ms total)
T158C 000:306 JLINK_SetErrorOutHandler(...) (0000ms, 0306ms total)
T158C 000:306 JLINK_ExecCommand("ProjectFile = "D:\GitHub respository\OneKeySolution-FW\available_smart_key\USER\JLinkSettings.ini"", ...)  returns 0x00 (0001ms, 0307ms total)
T158C 000:313 JLINK_ExecCommand("Device = STM32F103C8", ...)
                JLINK_ExecCommand("map ram 0x20000000 - 0x20004FFF", ...)  returns 0x00 (0000ms, 0000ms total)
                JLINK_AddMirrorAreaEx(Addr = 0x00000000, Size = 0x00000000) (0000ms, 0000ms total)
              Device "STM32F103C8" selected (64 KB flash, 20 KB RAM).  returns 0x00 (0010ms, 0317ms total)
T158C 000:323 JLINK_ExecCommand("DisableConnectionTimeout", ...)  returns 0x00 (0000ms, 0317ms total)
T158C 000:323 JLINK_TIF_Select(JLINKARM_TIF_SWD)  returns 0x00 (0003ms, 0320ms total)
T158C 000:326 JLINK_SetSpeed(2000) (0000ms, 0320ms total)
T158C 000:326 JLINK_GetHardwareVersion()  returns 0x13880 (0001ms, 0321ms total)
T158C 000:327 JLINK_GetDLLVersion()  returns 45401 (0000ms, 0321ms total)
T158C 000:327 JLINK_GetFirmwareString(...) (0000ms, 0321ms total)
T158C 000:350 JLINK_GetDLLVersion()  returns 45401 (0000ms, 0321ms total)
T158C 000:350 JLINK_GetCompileDateTime() (0000ms, 0321ms total)
T158C 000:358 JLINK_GetFirmwareString(...) (0000ms, 0321ms total)
T158C 000:365 JLINK_GetHardwareVersion()  returns 0x13880 (0000ms, 0321ms total)
T158C 000:385 JLINK_GetId() >0x108 TIF>Found SWD-DP with ID 0x1BA01477 >0x0D TIF> >0x28 TIF> >0x0D TIF> >0x28 TIF> >0x0D TIF> >0x21 TIF> >0x0D TIF> >0x28 TIF> >0x0D TIF> >0x28 TIF> >0x0D TIF> >0x28 TIF> >0x0D TIF> >0x21 TIF> >0x0D TIF> >0x21 TIF> >0x0D TIF> >0x28 TIF> >0x0D TIF> >0x21 TIF> >0x0D TIF> >0x21 TIF> >0x108 TIF>Found SWD-DP with ID 0x1BA01477 >0x0D TIF> >0x21 TIF> >0x0D TIF> >0x28 TIF> >0x0D TIF> >0x28 TIF> >0x0D TIF> >0x21 TIF> >0x0D TIF> >0x21 TIF> >0x0D TIF> >0x28 TIF> >0x0D TIF> >0x21 TIF>
 >0x0D TIF> >0x21 TIF> >0x0D TIF> >0x21 TIF> >0x0D TIF> >0x21 TIF> >0x0D TIF> >0x21 TIF> >0x0D TIF> >0x28 TIF> >0x0D TIF> >0x28 TIF> >0x0D TIF> >0x21 TIF> >0x0D TIF> >0x21 TIF> >0x0D TIF> >0x28 TIF> >0x0D TIF> >0x21 TIF> >0x0D TIF> >0x21 TIF> >0x0D TIF> >0x28 TIF> >0x0D TIF> >0x28 TIF> >0x0D TIF> >0x28 TIF> >0x0D TIF> >0x21 TIF> >0x0D TIF> >0x21 TIF> >0x0D TIF> >0x28 TIF> >0x0D TIF> >0x28 TIF> >0x0D TIF> >0x28 TIF> >0x0D TIF> >0x21 TIF> >0x0D TIF> >0x21 TIF> >0x0D TIF> >0x21 TIF>TPIU fitted. >0x0D TIF>
 >0x28 TIF> >0x0D TIF> >0x21 TIF> >0x0D TIF> >0x21 TIF> >0x0D TIF> >0x28 TIF> >0x0D TIF> >0x21 TIF> >0x0D TIF> >0x21 TIF>FPUnit: 6 code (BP) slots and 2 literal slots >0x0D TIF> >0x28 TIF> >0x0D TIF> >0x21 TIF> >0x0D TIF> >0x21 TIF> >0x0D TIF> >0x28 TIF> >0x0D TIF> >0x21 TIF> >0x0D TIF> >0x21 TIF> >0x0D TIF> >0x28 TIF> >0x0D TIF> >0x21 TIF> >0x0D TIF> >0x21 TIF> >0x0D TIF> >0x28 TIF> >0x0D TIF> >0x21 TIF> >0x0D TIF> >0x21 TIF>Found Cortex-M3 r1p1, Little endian. >0x0D TIF> >0x21 TIF>  returns 0x1BA01477
 (0115ms, 0436ms total)
T158C 000:500 JLINK_GetDeviceFamily()  returns 3 (0000ms, 0436ms total)
T158C 000:508 JLINK_ReadMem (0xE00FFFF0, 0x0010 Bytes, ...) -- CPU is running -- CPU_ReadMem(16 bytes @ 0xE00FFFF0) -- Data:  0D 00 00 00 10 00 00 00 05 00 00 00 B1 00 00 00  returns 0x00 (0001ms, 0437ms total)
T158C 000:509 JLINK_ReadMem (0xE00FFFD0, 0x0020 Bytes, ...) -- CPU is running -- CPU_ReadMem(32 bytes @ 0xE00FFFD0) -- Data:  00 00 00 00 00 00 00 00 00 00 00 00 00 00 00 00 ...  returns 0x00 (0002ms, 0439ms total)
T158C 000:511 JLINK_ReadMem (0xE00FF000, 0x0018 Bytes, ...) -- CPU is running -- CPU_ReadMem(24 bytes @ 0xE00FF000) -- Data:  03 F0 F0 FF 03 20 F0 FF 03 30 F0 FF 03 10 F0 FF ...  returns 0x00 (0001ms, 0440ms total)
T158C 000:512 JLINK_ReadMemU32(0xE000ED00, 0x0001 Items, ...) -- CPU is running -- CPU_ReadMem(4 bytes @ 0xE000ED00) -- Data:  31 C2 1F 41  returns 0x01 (0001ms, 0441ms total)
T158C 000:513 JLINK_SetResetType(JLINKARM_RESET_TYPE_NORMAL)  returns JLINKARM_RESET_TYPE_NORMAL (0001ms, 0442ms total)
T158C 000:514 JLINK_Reset() -- CPU is running -- CPU_WriteMem(4 bytes @ 0xE000EDF0) -- CPU is running -- CPU_WriteMem(4 bytes @ 0xE000EDFC) >0x35 TIF> -- CPU is running -- CPU_WriteMem(4 bytes @ 0xE000ED0C) -- CPU is running -- CPU_ReadMem(4 bytes @ 0xE000EDF0) -- CPU is running -- CPU_ReadMem(4 bytes @ 0xE000EDF0) -- CPU is running -- CPU_WriteMem(4 bytes @ 0xE000EDF0) -- CPU is running -- CPU_WriteMem(4 bytes @ 0xE000EDFC) -- CPU is running -- CPU_ReadMem(4 bytes @ 0xE000EDF0)
 -- CPU_WriteMem(4 bytes @ 0xE0002000) (0021ms, 0463ms total)
T158C 000:535 JLINK_Halt()  returns 0x00 (0000ms, 0463ms total)
T158C 000:535 JLINK_IsHalted()  returns TRUE (0000ms, 0463ms total)
T158C 000:535 JLINK_ReadMemU32(0xE000EDF0, 0x0001 Items, ...) -- CPU_ReadMem(4 bytes @ 0xE000EDF0) -- Data:  03 00 03 00  returns 0x01 (0001ms, 0464ms total)
T158C 000:536 JLINK_WriteU32(0xE000EDF0, 0xA05F0003) -- CPU_WriteMem(4 bytes @ 0xE000EDF0)  returns 0x00 (0001ms, 0465ms total)
T158C 000:537 JLINK_WriteU32(0xE000EDFC, 0x01000000) -- CPU_WriteMem(4 bytes @ 0xE000EDFC)  returns 0x00 (0001ms, 0466ms total)
T158C 000:560 JLINK_GetHWStatus(...)  returns 0x00 (0001ms, 0467ms total)
T158C 000:576 JLINK_GetNumBPUnits(Type = 0xFFFFFF00)  returns 0x06 (0001ms, 0468ms total)
T158C 000:577 JLINK_GetNumBPUnits(Type = 0xF0)  returns 0x2000 (0000ms, 0468ms total)
T158C 000:577 JLINK_GetNumWPUnits()  returns 0x04 (0000ms, 0468ms total)
T158C 000:595 JLINK_GetSpeed()  returns 0x7D0 (0000ms, 0468ms total)
T158C 000:606 JLINK_ReadMemU32(0xE000E004, 0x0001 Items, ...) -- CPU_ReadMem(4 bytes @ 0xE000E004) -- Data:  01 00 00 00  returns 0x01 (0001ms, 0469ms total)
T158C 000:607 JLINK_ReadMemU32(0xE000E004, 0x0001 Items, ...) -- CPU_ReadMem(4 bytes @ 0xE000E004) -- Data:  01 00 00 00  returns 0x01 (0001ms, 0470ms total)
T158C 000:608 JLINK_WriteMem(0xE0001000, 0x001C Bytes, ...) -- Data:  01 00 00 00 00 00 00 00 00 00 00 00 00 00 00 00 ... -- CPU_WriteMem(28 bytes @ 0xE0001000)  returns 0x1C (0002ms, 0472ms total)
T158C 000:610 JLINK_ReadMem (0xE0001000, 0x001C Bytes, ...) -- CPU_ReadMem(28 bytes @ 0xE0001000) -- Data:  01 00 00 40 00 00 00 00 00 00 00 00 00 00 00 00 ...  returns 0x00 (0001ms, 0473ms total)
T158C 000:611 JLINK_Halt()  returns 0x00 (0000ms, 0473ms total)
T158C 000:611 JLINK_IsHalted()  returns TRUE (0000ms, 0473ms total)
T158C 000:617 JLINK_WriteMem(0x20000000, 0x0164 Bytes, ...) -- Data:  00 BE 0A E0 0D 78 2D 06 68 40 08 24 40 00 00 D3 ... -- CPU_WriteMem(356 bytes @ 0x20000000)  returns 0x164 (0005ms, 0478ms total)
T158C 000:622 JLINK_WriteReg(R0, 0x08000000)  returns 0x00 (0000ms, 0478ms total)
T158C 000:622 JLINK_WriteReg(R1, 0x007A1200)  returns 0x00 (0000ms, 0478ms total)
T158C 000:622 JLINK_WriteReg(R2, 0x00000001)  returns 0x00 (0000ms, 0478ms total)
T158C 000:622 JLINK_WriteReg(R3, 0x00000000)  returns 0x00 (0000ms, 0478ms total)
T158C 000:622 JLINK_WriteReg(R4, 0x00000000)  returns 0x00 (0000ms, 0478ms total)
T158C 000:622 JLINK_WriteReg(R5, 0x00000000)  returns 0x00 (0000ms, 0478ms total)
T158C 000:622 JLINK_WriteReg(R6, 0x00000000)  returns 0x00 (0000ms, 0478ms total)
T158C 000:622 JLINK_WriteReg(R7, 0x00000000)  returns 0x00 (0000ms, 0478ms total)
T158C 000:622 JLINK_WriteReg(R8, 0x00000000)  returns 0x00 (0000ms, 0478ms total)
T158C 000:622 JLINK_WriteReg(R9, 0x20000160)  returns 0x00 (0000ms, 0478ms total)
T158C 000:622 JLINK_WriteReg(R10, 0x00000000)  returns 0x00 (0000ms, 0478ms total)
T158C 000:622 JLINK_WriteReg(R11, 0x00000000)  returns 0x00 (0001ms, 0479ms total)
T158C 000:623 JLINK_WriteReg(R12, 0x00000000)  returns 0x00 (0000ms, 0479ms total)
T158C 000:623 JLINK_WriteReg(R13, 0x20000800)  returns 0x00 (0000ms, 0479ms total)
T158C 000:623 JLINK_WriteReg(R14, 0x20000001)  returns 0x00 (0000ms, 0479ms total)
T158C 000:623 JLINK_WriteReg(R15, 0x20000038)  returns 0x00 (0000ms, 0479ms total)
T158C 000:623 JLINK_WriteReg(XPSR, 0x01000000)  returns 0x00 (0000ms, 0479ms total)
T158C 000:623 JLINK_WriteReg(MSP, 0x20000800)  returns 0x00 (0000ms, 0479ms total)
T158C 000:623 JLINK_WriteReg(PSP, 0x20000800)  returns 0x00 (0000ms, 0479ms total)
T158C 000:623 JLINK_WriteReg(CFBP, 0x00000000)  returns 0x00 (0000ms, 0479ms total)
T158C 000:623 JLINK_SetBPEx(Addr = 0x20000000, Type = 0xFFFFFFF2) -- CPU_ReadMem(2 bytes @ 0x20000000)  returns 0x00000001 (0001ms, 0480ms total)
T158C 000:624 JLINK_Go() -- CPU_WriteMem(2 bytes @ 0x20000000) -- CPU_WriteMem(4 bytes @ 0xE0002008) -- CPU_WriteMem(4 bytes @ 0xE000200C) -- CPU_WriteMem(4 bytes @ 0xE0002010) -- CPU_WriteMem(4 bytes @ 0xE0002014) -- CPU_WriteMem(4 bytes @ 0xE0002018) -- CPU_WriteMem(4 bytes @ 0xE000201C) (0010ms, 0490ms total)
T158C 000:634 JLINK_IsHalted() -- CPU_ReadMem(2 bytes @ 0x20000000)  returns TRUE (0006ms, 0496ms total)
T158C 000:640 JLINK_ReadReg(R15)  returns 0x20000000 (0000ms, 0490ms total)
T158C 000:640 JLINK_ClrBPEx(BPHandle = 0x00000001)  returns 0x00 (0000ms, 0490ms total)
T158C 000:640 JLINK_ReadReg(R0)  returns 0x00000000 (0000ms, 0490ms total)
T158C 000:641 JLINK_WriteReg(R0, 0x08000000)  returns 0x00 (0000ms, 0490ms total)
T158C 000:641 JLINK_WriteReg(R1, 0x007A1200)  returns 0x00 (0000ms, 0490ms total)
T158C 000:641 JLINK_WriteReg(R2, 0x00000001)  returns 0x00 (0000ms, 0490ms total)
T158C 000:641 JLINK_WriteReg(R3, 0x00000000)  returns 0x00 (0000ms, 0490ms total)
T158C 000:641 JLINK_WriteReg(R4, 0x00000000)  returns 0x00 (0000ms, 0490ms total)
T158C 000:641 JLINK_WriteReg(R5, 0x00000000)  returns 0x00 (0000ms, 0490ms total)
T158C 000:641 JLINK_WriteReg(R6, 0x00000000)  returns 0x00 (0000ms, 0490ms total)
T158C 000:641 JLINK_WriteReg(R7, 0x00000000)  returns 0x00 (0000ms, 0490ms total)
T158C 000:641 JLINK_WriteReg(R8, 0x00000000)  returns 0x00 (0000ms, 0490ms total)
T158C 000:641 JLINK_WriteReg(R9, 0x20000160)  returns 0x00 (0000ms, 0490ms total)
T158C 000:641 JLINK_WriteReg(R10, 0x00000000)  returns 0x00 (0000ms, 0490ms total)
T158C 000:641 JLINK_WriteReg(R11, 0x00000000)  returns 0x00 (0000ms, 0490ms total)
T158C 000:641 JLINK_WriteReg(R12, 0x00000000)  returns 0x00 (0000ms, 0490ms total)
T158C 000:641 JLINK_WriteReg(R13, 0x20000800)  returns 0x00 (0001ms, 0491ms total)
T158C 000:642 JLINK_WriteReg(R14, 0x20000001)  returns 0x00 (0000ms, 0491ms total)
T158C 000:642 JLINK_WriteReg(R15, 0x2000007C)  returns 0x00 (0000ms, 0491ms total)
T158C 000:642 JLINK_WriteReg(XPSR, 0x01000000)  returns 0x00 (0000ms, 0491ms total)
T158C 000:642 JLINK_WriteReg(MSP, 0x20000800)  returns 0x00 (0000ms, 0491ms total)
T158C 000:642 JLINK_WriteReg(PSP, 0x20000800)  returns 0x00 (0000ms, 0491ms total)
T158C 000:642 JLINK_WriteReg(CFBP, 0x00000000)  returns 0x00 (0000ms, 0491ms total)
T158C 000:642 JLINK_SetBPEx(Addr = 0x20000000, Type = 0xFFFFFFF2)  returns 0x00000002 (0000ms, 0491ms total)
T158C 000:642 JLINK_Go() (0002ms, 0493ms total)
T158C 000:644 JLINK_IsHalted()  returns FALSE (0001ms, 0494ms total)
T158C 000:695 JLINK_IsHalted() -- CPU_ReadMem(2 bytes @ 0x20000000)  returns TRUE (0005ms, 0498ms total)
T158C 000:700 JLINK_ReadReg(R15)  returns 0x20000000 (0000ms, 0493ms total)
T158C 000:700 JLINK_ClrBPEx(BPHandle = 0x00000002)  returns 0x00 (0000ms, 0493ms total)
T158C 000:700 JLINK_ReadReg(R0)  returns 0x00000000 (0000ms, 0493ms total)
T158C 000:753 JLINK_WriteReg(R0, 0x00000001)  returns 0x00 (0000ms, 0493ms total)
T158C 000:753 JLINK_WriteReg(R1, 0x007A1200)  returns 0x00 (0000ms, 0493ms total)
T158C 000:753 JLINK_WriteReg(R2, 0x00000001)  returns 0x00 (0000ms, 0493ms total)
T158C 000:753 JLINK_WriteReg(R3, 0x00000000)  returns 0x00 (0000ms, 0493ms total)
T158C 000:753 JLINK_WriteReg(R4, 0x00000000)  returns 0x00 (0000ms, 0493ms total)
T158C 000:753 JLINK_WriteReg(R5, 0x00000000)  returns 0x00 (0000ms, 0493ms total)
T158C 000:753 JLINK_WriteReg(R6, 0x00000000)  returns 0x00 (0000ms, 0493ms total)
T158C 000:753 JLINK_WriteReg(R7, 0x00000000)  returns 0x00 (0000ms, 0493ms total)
T158C 000:753 JLINK_WriteReg(R8, 0x00000000)  returns 0x00 (0000ms, 0493ms total)
T158C 000:753 JLINK_WriteReg(R9, 0x20000160)  returns 0x00 (0000ms, 0493ms total)
T158C 000:753 JLINK_WriteReg(R10, 0x00000000)  returns 0x00 (0000ms, 0493ms total)
T158C 000:754 JLINK_WriteReg(R11, 0x00000000)  returns 0x00 (0000ms, 0493ms total)
T158C 000:754 JLINK_WriteReg(R12, 0x00000000)  returns 0x00 (0000ms, 0493ms total)
T158C 000:754 JLINK_WriteReg(R13, 0x20000800)  returns 0x00 (0000ms, 0493ms total)
T158C 000:754 JLINK_WriteReg(R14, 0x20000001)  returns 0x00 (0000ms, 0493ms total)
T158C 000:754 JLINK_WriteReg(R15, 0x2000006A)  returns 0x00 (0000ms, 0493ms total)
T158C 000:754 JLINK_WriteReg(XPSR, 0x01000000)  returns 0x00 (0000ms, 0493ms total)
T158C 000:754 JLINK_WriteReg(MSP, 0x20000800)  returns 0x00 (0000ms, 0493ms total)
T158C 000:754 JLINK_WriteReg(PSP, 0x20000800)  returns 0x00 (0000ms, 0493ms total)
T158C 000:754 JLINK_WriteReg(CFBP, 0x00000000)  returns 0x00 (0000ms, 0493ms total)
T158C 000:754 JLINK_SetBPEx(Addr = 0x20000000, Type = 0xFFFFFFF2)  returns 0x00000003 (0000ms, 0493ms total)
T158C 000:754 JLINK_Go() (0003ms, 0496ms total)
T158C 000:757 JLINK_IsHalted() -- CPU_ReadMem(2 bytes @ 0x20000000)  returns TRUE (0005ms, 0501ms total)
T158C 000:762 JLINK_ReadReg(R15)  returns 0x20000000 (0000ms, 0496ms total)
T158C 000:762 JLINK_ClrBPEx(BPHandle = 0x00000003)  returns 0x00 (0000ms, 0496ms total)
T158C 000:762 JLINK_ReadReg(R0)  returns 0x00000000 (0000ms, 0496ms total)
T158C 000:776 JLINK_WriteMem(0x20000000, 0x0164 Bytes, ...) -- Data:  00 BE 0A E0 0D 78 2D 06 68 40 08 24 40 00 00 D3 ... -- CPU_WriteMem(356 bytes @ 0x20000000)  returns 0x164 (0005ms, 0501ms total)
T158C 000:781 JLINK_WriteReg(R0, 0x08000000)  returns 0x00 (0000ms, 0501ms total)
T158C 000:781 JLINK_WriteReg(R1, 0x007A1200)  returns 0x00 (0000ms, 0501ms total)
T158C 000:782 JLINK_WriteReg(R2, 0x00000002)  returns 0x00 (0000ms, 0501ms total)
T158C 000:782 JLINK_WriteReg(R3, 0x00000000)  returns 0x00 (0000ms, 0501ms total)
T158C 000:782 JLINK_WriteReg(R4, 0x00000000)  returns 0x00 (0000ms, 0501ms total)
T158C 000:782 JLINK_WriteReg(R5, 0x00000000)  returns 0x00 (0000ms, 0501ms total)
T158C 000:782 JLINK_WriteReg(R6, 0x00000000)  returns 0x00 (0000ms, 0501ms total)
T158C 000:782 JLINK_WriteReg(R7, 0x00000000)  returns 0x00 (0000ms, 0501ms total)
T158C 000:782 JLINK_WriteReg(R8, 0x00000000)  returns 0x00 (0000ms, 0501ms total)
T158C 000:782 JLINK_WriteReg(R9, 0x20000160)  returns 0x00 (0000ms, 0501ms total)
T158C 000:782 JLINK_WriteReg(R10, 0x00000000)  returns 0x00 (0000ms, 0501ms total)
T158C 000:782 JLINK_WriteReg(R11, 0x00000000)  returns 0x00 (0000ms, 0501ms total)
T158C 000:782 JLINK_WriteReg(R12, 0x00000000)  returns 0x00 (0000ms, 0501ms total)
T158C 000:782 JLINK_WriteReg(R13, 0x20000800)  returns 0x00 (0000ms, 0501ms total)
T158C 000:782 JLINK_WriteReg(R14, 0x20000001)  returns 0x00 (0000ms, 0501ms total)
T158C 000:782 JLINK_WriteReg(R15, 0x20000038)  returns 0x00 (0000ms, 0501ms total)
T158C 000:782 JLINK_WriteReg(XPSR, 0x01000000)  returns 0x00 (0000ms, 0501ms total)
T158C 000:782 JLINK_WriteReg(MSP, 0x20000800)  returns 0x00 (0000ms, 0501ms total)
T158C 000:782 JLINK_WriteReg(PSP, 0x20000800)  returns 0x00 (0000ms, 0501ms total)
T158C 000:782 JLINK_WriteReg(CFBP, 0x00000000)  returns 0x00 (0000ms, 0501ms total)
T158C 000:782 JLINK_SetBPEx(Addr = 0x20000000, Type = 0xFFFFFFF2) -- CPU_ReadMem(2 bytes @ 0x20000000)  returns 0x00000004 (0002ms, 0503ms total)
T158C 000:784 JLINK_Go() -- CPU_WriteMem(2 bytes @ 0x20000000) (0003ms, 0506ms total)
T158C 000:787 JLINK_IsHalted() -- CPU_ReadMem(2 bytes @ 0x20000000)  returns TRUE (0006ms, 0512ms total)
T158C 000:793 JLINK_ReadReg(R15)  returns 0x20000000 (0000ms, 0506ms total)
T158C 000:793 JLINK_ClrBPEx(BPHandle = 0x00000004)  returns 0x00 (0000ms, 0506ms total)
T158C 000:793 JLINK_ReadReg(R0)  returns 0x00000000 (0000ms, 0506ms total)
T158C 000:794 JLINK_WriteMem(0x20000164, 0x0400 Bytes, ...) -- Data:  58 28 00 20 01 01 00 08 F1 2A 00 08 F3 2A 00 08 ... -- CPU_WriteMem(1024 bytes @ 0x20000164)  returns 0x400 (0014ms, 0520ms total)
T158C 000:808 JLINK_WriteReg(R0, 0x08000000)  returns 0x00 (0000ms, 0520ms total)
T158C 000:808 JLINK_WriteReg(R1, 0x00000400)  returns 0x00 (0000ms, 0520ms total)
T158C 000:808 JLINK_WriteReg(R2, 0x20000164)  returns 0x00 (0000ms, 0520ms total)
T158C 000:808 JLINK_WriteReg(R3, 0x00000000)  returns 0x00 (0000ms, 0520ms total)
T158C 000:808 JLINK_WriteReg(R4, 0x00000000)  returns 0x00 (0000ms, 0520ms total)
T158C 000:808 JLINK_WriteReg(R5, 0x00000000)  returns 0x00 (0000ms, 0520ms total)
T158C 000:808 JLINK_WriteReg(R6, 0x00000000)  returns 0x00 (0000ms, 0520ms total)
T158C 000:808 JLINK_WriteReg(R7, 0x00000000)  returns 0x00 (0000ms, 0520ms total)
T158C 000:808 JLINK_WriteReg(R8, 0x00000000)  returns 0x00 (0000ms, 0520ms total)
T158C 000:808 JLINK_WriteReg(R9, 0x20000160)  returns 0x00 (0000ms, 0520ms total)
T158C 000:808 JLINK_WriteReg(R10, 0x00000000)  returns 0x00 (0000ms, 0520ms total)
T158C 000:808 JLINK_WriteReg(R11, 0x00000000)  returns 0x00 (0000ms, 0520ms total)
T158C 000:808 JLINK_WriteReg(R12, 0x00000000)  returns 0x00 (0000ms, 0520ms total)
T158C 000:808 JLINK_WriteReg(R13, 0x20000800)  returns 0x00 (0000ms, 0520ms total)
T158C 000:808 JLINK_WriteReg(R14, 0x20000001)  returns 0x00 (0000ms, 0520ms total)
T158C 000:808 JLINK_WriteReg(R15, 0x200000F4)  returns 0x00 (0000ms, 0520ms total)
T158C 000:808 JLINK_WriteReg(XPSR, 0x01000000)  returns 0x00 (0000ms, 0520ms total)
T158C 000:808 JLINK_WriteReg(MSP, 0x20000800)  returns 0x00 (0000ms, 0520ms total)
T158C 000:808 JLINK_WriteReg(PSP, 0x20000800)  returns 0x00 (0001ms, 0521ms total)
T158C 000:809 JLINK_WriteReg(CFBP, 0x00000000)  returns 0x00 (0000ms, 0521ms total)
T158C 000:809 JLINK_SetBPEx(Addr = 0x20000000, Type = 0xFFFFFFF2)  returns 0x00000005 (0000ms, 0521ms total)
T158C 000:809 JLINK_Go() (0003ms, 0524ms total)
T158C 000:812 JLINK_IsHalted()  returns FALSE (0001ms, 0525ms total)
T158C 000:863 JLINK_IsHalted() -- CPU_ReadMem(2 bytes @ 0x20000000)  returns TRUE (0005ms, 0529ms total)
T158C 000:868 JLINK_ReadReg(R15)  returns 0x20000000 (0000ms, 0524ms total)
T158C 000:868 JLINK_ClrBPEx(BPHandle = 0x00000005)  returns 0x00 (0000ms, 0524ms total)
T158C 000:868 JLINK_ReadReg(R0)  returns 0x00000000 (0000ms, 0524ms total)
T158C 000:869 JLINK_WriteMem(0x20000164, 0x0400 Bytes, ...) -- Data:  88 43 D6 1F 06 EB 86 06 05 FA 06 F1 08 43 20 63 ... -- CPU_WriteMem(1024 bytes @ 0x20000164)  returns 0x400 (0013ms, 0537ms total)
T158C 000:882 JLINK_WriteReg(R0, 0x08000400)  returns 0x00 (0000ms, 0537ms total)
T158C 000:882 JLINK_WriteReg(R1, 0x00000400)  returns 0x00 (0000ms, 0537ms total)
T158C 000:882 JLINK_WriteReg(R2, 0x20000164)  returns 0x00 (0000ms, 0537ms total)
T158C 000:882 JLINK_WriteReg(R3, 0x00000000)  returns 0x00 (0000ms, 0537ms total)
T158C 000:882 JLINK_WriteReg(R4, 0x00000000)  returns 0x00 (0000ms, 0537ms total)
T158C 000:882 JLINK_WriteReg(R5, 0x00000000)  returns 0x00 (0000ms, 0537ms total)
T158C 000:882 JLINK_WriteReg(R6, 0x00000000)  returns 0x00 (0000ms, 0537ms total)
T158C 000:882 JLINK_WriteReg(R7, 0x00000000)  returns 0x00 (0000ms, 0537ms total)
T158C 000:882 JLINK_WriteReg(R8, 0x00000000)  returns 0x00 (0000ms, 0537ms total)
T158C 000:882 JLINK_WriteReg(R9, 0x20000160)  returns 0x00 (0000ms, 0537ms total)
T158C 000:882 JLINK_WriteReg(R10, 0x00000000)  returns 0x00 (0000ms, 0537ms total)
T158C 000:882 JLINK_WriteReg(R11, 0x00000000)  returns 0x00 (0000ms, 0537ms total)
T158C 000:882 JLINK_WriteReg(R12, 0x00000000)  returns 0x00 (0000ms, 0537ms total)
T158C 000:882 JLINK_WriteReg(R13, 0x20000800)  returns 0x00 (0000ms, 0537ms total)
T158C 000:882 JLINK_WriteReg(R14, 0x20000001)  returns 0x00 (0000ms, 0537ms total)
T158C 000:882 JLINK_WriteReg(R15, 0x200000F4)  returns 0x00 (0000ms, 0537ms total)
T158C 000:883 JLINK_WriteReg(XPSR, 0x01000000)  returns 0x00 (0000ms, 0538ms total)
T158C 000:883 JLINK_WriteReg(MSP, 0x20000800)  returns 0x00 (0000ms, 0538ms total)
T158C 000:883 JLINK_WriteReg(PSP, 0x20000800)  returns 0x00 (0000ms, 0538ms total)
T158C 000:883 JLINK_WriteReg(CFBP, 0x00000000)  returns 0x00 (0000ms, 0538ms total)
T158C 000:883 JLINK_SetBPEx(Addr = 0x20000000, Type = 0xFFFFFFF2)  returns 0x00000006 (0000ms, 0538ms total)
T158C 000:883 JLINK_Go() (0002ms, 0540ms total)
T158C 000:885 JLINK_IsHalted()  returns FALSE (0001ms, 0541ms total)
T158C 000:936 JLINK_IsHalted() -- CPU_ReadMem(2 bytes @ 0x20000000)  returns TRUE (0005ms, 0545ms total)
T158C 000:941 JLINK_ReadReg(R15)  returns 0x20000000 (0000ms, 0540ms total)
T158C 000:941 JLINK_ClrBPEx(BPHandle = 0x00000006)  returns 0x00 (0000ms, 0540ms total)
T158C 000:941 JLINK_ReadReg(R0)  returns 0x00000000 (0000ms, 0540ms total)
T158C 000:943 JLINK_WriteMem(0x20000164, 0x0400 Bytes, ...) -- Data:  FF FF 0F 00 10 B5 04 46 CA 48 84 42 08 D1 01 21 ... -- CPU_WriteMem(1024 bytes @ 0x20000164)  returns 0x400 (0013ms, 0553ms total)
T158C 000:957 JLINK_WriteReg(R0, 0x08000800)  returns 0x00 (0000ms, 0554ms total)
T158C 000:957 JLINK_WriteReg(R1, 0x00000400)  returns 0x00 (0000ms, 0554ms total)
T158C 000:957 JLINK_WriteReg(R2, 0x20000164)  returns 0x00 (0000ms, 0554ms total)
T158C 000:957 JLINK_WriteReg(R3, 0x00000000)  returns 0x00 (0000ms, 0554ms total)
T158C 000:957 JLINK_WriteReg(R4, 0x00000000)  returns 0x00 (0000ms, 0554ms total)
T158C 000:957 JLINK_WriteReg(R5, 0x00000000)  returns 0x00 (0000ms, 0554ms total)
T158C 000:957 JLINK_WriteReg(R6, 0x00000000)  returns 0x00 (0000ms, 0554ms total)
T158C 000:957 JLINK_WriteReg(R7, 0x00000000)  returns 0x00 (0000ms, 0554ms total)
T158C 000:957 JLINK_WriteReg(R8, 0x00000000)  returns 0x00 (0001ms, 0555ms total)
T158C 000:958 JLINK_WriteReg(R9, 0x20000160)  returns 0x00 (0000ms, 0555ms total)
T158C 000:958 JLINK_WriteReg(R10, 0x00000000)  returns 0x00 (0000ms, 0555ms total)
T158C 000:958 JLINK_WriteReg(R11, 0x00000000)  returns 0x00 (0001ms, 0556ms total)
T158C 000:959 JLINK_WriteReg(R12, 0x00000000)  returns 0x00 (0000ms, 0556ms total)
T158C 000:959 JLINK_WriteReg(R13, 0x20000800)  returns 0x00 (0000ms, 0556ms total)
T158C 000:959 JLINK_WriteReg(R14, 0x20000001)  returns 0x00 (0000ms, 0556ms total)
T158C 000:959 JLINK_WriteReg(R15, 0x200000F4)  returns 0x00 (0000ms, 0556ms total)
T158C 000:959 JLINK_WriteReg(XPSR, 0x01000000)  returns 0x00 (0000ms, 0556ms total)
T158C 000:959 JLINK_WriteReg(MSP, 0x20000800)  returns 0x00 (0000ms, 0556ms total)
T158C 000:959 JLINK_WriteReg(PSP, 0x20000800)  returns 0x00 (0000ms, 0556ms total)
T158C 000:959 JLINK_WriteReg(CFBP, 0x00000000)  returns 0x00 (0000ms, 0556ms total)
T158C 000:959 JLINK_SetBPEx(Addr = 0x20000000, Type = 0xFFFFFFF2)  returns 0x00000007 (0000ms, 0556ms total)
T158C 000:959 JLINK_Go() (0003ms, 0559ms total)
T158C 000:962 JLINK_IsHalted()  returns FALSE (0001ms, 0560ms total)
T158C 001:013 JLINK_IsHalted() -- CPU_ReadMem(2 bytes @ 0x20000000)  returns TRUE (0006ms, 0565ms total)
T158C 001:019 JLINK_ReadReg(R15)  returns 0x20000000 (0000ms, 0559ms total)
T158C 001:019 JLINK_ClrBPEx(BPHandle = 0x00000007)  returns 0x00 (0000ms, 0559ms total)
T158C 001:019 JLINK_ReadReg(R0)  returns 0x00000000 (0000ms, 0559ms total)
T158C 001:020 JLINK_WriteMem(0x20000164, 0x0400 Bytes, ...) -- Data:  1B 68 23 F0 04 03 17 4C 23 60 10 BD 13 48 00 68 ... -- CPU_WriteMem(1024 bytes @ 0x20000164)  returns 0x400 (0013ms, 0572ms total)
T158C 001:033 JLINK_WriteReg(R0, 0x08000C00)  returns 0x00 (0001ms, 0573ms total)
T158C 001:034 JLINK_WriteReg(R1, 0x00000400)  returns 0x00 (0000ms, 0573ms total)
T158C 001:034 JLINK_WriteReg(R2, 0x20000164)  returns 0x00 (0000ms, 0573ms total)
T158C 001:034 JLINK_WriteReg(R3, 0x00000000)  returns 0x00 (0000ms, 0573ms total)
T158C 001:034 JLINK_WriteReg(R4, 0x00000000)  returns 0x00 (0000ms, 0573ms total)
T158C 001:034 JLINK_WriteReg(R5, 0x00000000)  returns 0x00 (0000ms, 0573ms total)
T158C 001:034 JLINK_WriteReg(R6, 0x00000000)  returns 0x00 (0000ms, 0573ms total)
T158C 001:034 JLINK_WriteReg(R7, 0x00000000)  returns 0x00 (0000ms, 0573ms total)
T158C 001:034 JLINK_WriteReg(R8, 0x00000000)  returns 0x00 (0000ms, 0573ms total)
T158C 001:034 JLINK_WriteReg(R9, 0x20000160)  returns 0x00 (0000ms, 0573ms total)
T158C 001:034 JLINK_WriteReg(R10, 0x00000000)  returns 0x00 (0000ms, 0573ms total)
T158C 001:034 JLINK_WriteReg(R11, 0x00000000)  returns 0x00 (0000ms, 0573ms total)
T158C 001:034 JLINK_WriteReg(R12, 0x00000000)  returns 0x00 (0000ms, 0573ms total)
T158C 001:034 JLINK_WriteReg(R13, 0x20000800)  returns 0x00 (0000ms, 0573ms total)
T158C 001:034 JLINK_WriteReg(R14, 0x20000001)  returns 0x00 (0000ms, 0573ms total)
T158C 001:034 JLINK_WriteReg(R15, 0x200000F4)  returns 0x00 (0000ms, 0573ms total)
T158C 001:034 JLINK_WriteReg(XPSR, 0x01000000)  returns 0x00 (0000ms, 0573ms total)
T158C 001:034 JLINK_WriteReg(MSP, 0x20000800)  returns 0x00 (0000ms, 0573ms total)
T158C 001:034 JLINK_WriteReg(PSP, 0x20000800)  returns 0x00 (0000ms, 0573ms total)
T158C 001:034 JLINK_WriteReg(CFBP, 0x00000000)  returns 0x00 (0000ms, 0573ms total)
T158C 001:034 JLINK_SetBPEx(Addr = 0x20000000, Type = 0xFFFFFFF2)  returns 0x00000008 (0001ms, 0574ms total)
T158C 001:035 JLINK_Go() (0002ms, 0576ms total)
T158C 001:038 JLINK_IsHalted()  returns FALSE (0000ms, 0576ms total)
T158C 001:089 JLINK_IsHalted() -- CPU_ReadMem(2 bytes @ 0x20000000)  returns TRUE (0005ms, 0581ms total)
T158C 001:094 JLINK_ReadReg(R15)  returns 0x20000000 (0000ms, 0576ms total)
T158C 001:094 JLINK_ClrBPEx(BPHandle = 0x00000008)  returns 0x00 (0000ms, 0576ms total)
T158C 001:094 JLINK_ReadReg(R0)  returns 0x00000000 (0000ms, 0576ms total)
T158C 001:096 JLINK_WriteMem(0x20000164, 0x0400 Bytes, ...) -- Data:  10 00 00 20 29 B1 4F 4A 12 88 02 43 4D 4B 1A 80 ... -- CPU_WriteMem(1024 bytes @ 0x20000164)  returns 0x400 (0012ms, 0588ms total)
T158C 001:109 JLINK_WriteReg(R0, 0x08001000)  returns 0x00 (0000ms, 0589ms total)
T158C 001:109 JLINK_WriteReg(R1, 0x00000400)  returns 0x00 (0000ms, 0589ms total)
T158C 001:109 JLINK_WriteReg(R2, 0x20000164)  returns 0x00 (0000ms, 0589ms total)
T158C 001:109 JLINK_WriteReg(R3, 0x00000000)  returns 0x00 (0000ms, 0589ms total)
T158C 001:109 JLINK_WriteReg(R4, 0x00000000)  returns 0x00 (0000ms, 0589ms total)
T158C 001:109 JLINK_WriteReg(R5, 0x00000000)  returns 0x00 (0000ms, 0589ms total)
T158C 001:109 JLINK_WriteReg(R6, 0x00000000)  returns 0x00 (0000ms, 0589ms total)
T158C 001:109 JLINK_WriteReg(R7, 0x00000000)  returns 0x00 (0000ms, 0589ms total)
T158C 001:109 JLINK_WriteReg(R8, 0x00000000)  returns 0x00 (0000ms, 0589ms total)
T158C 001:109 JLINK_WriteReg(R9, 0x20000160)  returns 0x00 (0000ms, 0589ms total)
T158C 001:109 JLINK_WriteReg(R10, 0x00000000)  returns 0x00 (0000ms, 0589ms total)
T158C 001:109 JLINK_WriteReg(R11, 0x00000000)  returns 0x00 (0000ms, 0589ms total)
T158C 001:109 JLINK_WriteReg(R12, 0x00000000)  returns 0x00 (0000ms, 0589ms total)
T158C 001:109 JLINK_WriteReg(R13, 0x20000800)  returns 0x00 (0000ms, 0589ms total)
T158C 001:109 JLINK_WriteReg(R14, 0x20000001)  returns 0x00 (0001ms, 0590ms total)
T158C 001:110 JLINK_WriteReg(R15, 0x200000F4)  returns 0x00 (0000ms, 0590ms total)
T158C 001:110 JLINK_WriteReg(XPSR, 0x01000000)  returns 0x00 (0000ms, 0590ms total)
T158C 001:110 JLINK_WriteReg(MSP, 0x20000800)  returns 0x00 (0000ms, 0590ms total)
T158C 001:110 JLINK_WriteReg(PSP, 0x20000800)  returns 0x00 (0000ms, 0590ms total)
T158C 001:110 JLINK_WriteReg(CFBP, 0x00000000)  returns 0x00 (0000ms, 0590ms total)
T158C 001:110 JLINK_SetBPEx(Addr = 0x20000000, Type = 0xFFFFFFF2)  returns 0x00000009 (0000ms, 0590ms total)
T158C 001:110 JLINK_Go() (0003ms, 0593ms total)
T158C 001:113 JLINK_IsHalted()  returns FALSE (0001ms, 0594ms total)
T158C 001:164 JLINK_IsHalted() -- CPU_ReadMem(2 bytes @ 0x20000000)  returns TRUE (0005ms, 0598ms total)
T158C 001:169 JLINK_ReadReg(R15)  returns 0x20000000 (0000ms, 0593ms total)
T158C 001:169 JLINK_ClrBPEx(BPHandle = 0x00000009)  returns 0x00 (0000ms, 0593ms total)
T158C 001:169 JLINK_ReadReg(R0)  returns 0x00000000 (0000ms, 0593ms total)
T158C 001:171 JLINK_WriteMem(0x20000164, 0x0400 Bytes, ...) -- Data:  02 46 00 20 00 24 00 23 00 25 01 F0 0F 07 01 26 ... -- CPU_WriteMem(1024 bytes @ 0x20000164)  returns 0x400 (0013ms, 0606ms total)
T158C 001:184 JLINK_WriteReg(R0, 0x08001400)  returns 0x00 (0000ms, 0606ms total)
T158C 001:184 JLINK_WriteReg(R1, 0x00000400)  returns 0x00 (0000ms, 0606ms total)
T158C 001:184 JLINK_WriteReg(R2, 0x20000164)  returns 0x00 (0000ms, 0606ms total)
T158C 001:184 JLINK_WriteReg(R3, 0x00000000)  returns 0x00 (0000ms, 0606ms total)
T158C 001:184 JLINK_WriteReg(R4, 0x00000000)  returns 0x00 (0000ms, 0606ms total)
T158C 001:184 JLINK_WriteReg(R5, 0x00000000)  returns 0x00 (0000ms, 0606ms total)
T158C 001:184 JLINK_WriteReg(R6, 0x00000000)  returns 0x00 (0000ms, 0606ms total)
T158C 001:184 JLINK_WriteReg(R7, 0x00000000)  returns 0x00 (0000ms, 0606ms total)
T158C 001:184 JLINK_WriteReg(R8, 0x00000000)  returns 0x00 (0000ms, 0606ms total)
T158C 001:184 JLINK_WriteReg(R9, 0x20000160)  returns 0x00 (0000ms, 0606ms total)
T158C 001:184 JLINK_WriteReg(R10, 0x00000000)  returns 0x00 (0000ms, 0606ms total)
T158C 001:184 JLINK_WriteReg(R11, 0x00000000)  returns 0x00 (0000ms, 0606ms total)
T158C 001:184 JLINK_WriteReg(R12, 0x00000000)  returns 0x00 (0000ms, 0606ms total)
T158C 001:184 JLINK_WriteReg(R13, 0x20000800)  returns 0x00 (0000ms, 0606ms total)
T158C 001:184 JLINK_WriteReg(R14, 0x20000001)  returns 0x00 (0000ms, 0606ms total)
T158C 001:184 JLINK_WriteReg(R15, 0x200000F4)  returns 0x00 (0001ms, 0607ms total)
T158C 001:185 JLINK_WriteReg(XPSR, 0x01000000)  returns 0x00 (0000ms, 0607ms total)
T158C 001:185 JLINK_WriteReg(MSP, 0x20000800)  returns 0x00 (0000ms, 0607ms total)
T158C 001:185 JLINK_WriteReg(PSP, 0x20000800)  returns 0x00 (0000ms, 0607ms total)
T158C 001:185 JLINK_WriteReg(CFBP, 0x00000000)  returns 0x00 (0000ms, 0607ms total)
T158C 001:185 JLINK_SetBPEx(Addr = 0x20000000, Type = 0xFFFFFFF2)  returns 0x0000000A (0000ms, 0607ms total)
T158C 001:185 JLINK_Go() (0003ms, 0610ms total)
T158C 001:188 JLINK_IsHalted()  returns FALSE (0001ms, 0611ms total)
T158C 001:239 JLINK_IsHalted() -- CPU_ReadMem(2 bytes @ 0x20000000)  returns TRUE (0005ms, 0615ms total)
T158C 001:244 JLINK_ReadReg(R15)  returns 0x20000000 (0000ms, 0610ms total)
T158C 001:244 JLINK_ClrBPEx(BPHandle = 0x0000000A)  returns 0x00 (0000ms, 0610ms total)
T158C 001:244 JLINK_ReadReg(R0)  returns 0x00000000 (0000ms, 0610ms total)
T158C 001:246 JLINK_WriteMem(0x20000164, 0x0400 Bytes, ...) -- Data:  2A 43 4E F6 FF 75 2B 40 4D F6 FF 75 2B 40 8D 89 ... -- CPU_WriteMem(1024 bytes @ 0x20000164)  returns 0x400 (0013ms, 0623ms total)
T158C 001:259 JLINK_WriteReg(R0, 0x08001800)  returns 0x00 (0000ms, 0623ms total)
T158C 001:259 JLINK_WriteReg(R1, 0x00000400)  returns 0x00 (0000ms, 0623ms total)
T158C 001:259 JLINK_WriteReg(R2, 0x20000164)  returns 0x00 (0000ms, 0623ms total)
T158C 001:259 JLINK_WriteReg(R3, 0x00000000)  returns 0x00 (0000ms, 0623ms total)
T158C 001:259 JLINK_WriteReg(R4, 0x00000000)  returns 0x00 (0000ms, 0623ms total)
T158C 001:259 JLINK_WriteReg(R5, 0x00000000)  returns 0x00 (0000ms, 0623ms total)
T158C 001:259 JLINK_WriteReg(R6, 0x00000000)  returns 0x00 (0000ms, 0623ms total)
T158C 001:259 JLINK_WriteReg(R7, 0x00000000)  returns 0x00 (0000ms, 0623ms total)
T158C 001:259 JLINK_WriteReg(R8, 0x00000000)  returns 0x00 (0000ms, 0623ms total)
T158C 001:259 JLINK_WriteReg(R9, 0x20000160)  returns 0x00 (0000ms, 0623ms total)
T158C 001:259 JLINK_WriteReg(R10, 0x00000000)  returns 0x00 (0000ms, 0623ms total)
T158C 001:259 JLINK_WriteReg(R11, 0x00000000)  returns 0x00 (0000ms, 0623ms total)
T158C 001:259 JLINK_WriteReg(R12, 0x00000000)  returns 0x00 (0000ms, 0623ms total)
T158C 001:260 JLINK_WriteReg(R13, 0x20000800)  returns 0x00 (0000ms, 0624ms total)
T158C 001:260 JLINK_WriteReg(R14, 0x20000001)  returns 0x00 (0000ms, 0624ms total)
T158C 001:260 JLINK_WriteReg(R15, 0x200000F4)  returns 0x00 (0000ms, 0624ms total)
T158C 001:260 JLINK_WriteReg(XPSR, 0x01000000)  returns 0x00 (0000ms, 0624ms total)
T158C 001:260 JLINK_WriteReg(MSP, 0x20000800)  returns 0x00 (0000ms, 0624ms total)
T158C 001:260 JLINK_WriteReg(PSP, 0x20000800)  returns 0x00 (0000ms, 0624ms total)
T158C 001:260 JLINK_WriteReg(CFBP, 0x00000000)  returns 0x00 (0000ms, 0624ms total)
T158C 001:260 JLINK_SetBPEx(Addr = 0x20000000, Type = 0xFFFFFFF2)  returns 0x0000000B (0000ms, 0624ms total)
T158C 001:260 JLINK_Go() (0003ms, 0627ms total)
T158C 001:263 JLINK_IsHalted()  returns FALSE (0001ms, 0628ms total)
T158C 001:314 JLINK_IsHalted() -- CPU_ReadMem(2 bytes @ 0x20000000)  returns TRUE (0006ms, 0633ms total)
T158C 001:320 JLINK_ReadReg(R15)  returns 0x20000000 (0000ms, 0627ms total)
T158C 001:320 JLINK_ClrBPEx(BPHandle = 0x0000000B)  returns 0x00 (0000ms, 0627ms total)
T158C 001:320 JLINK_ReadReg(R0)  returns 0x00000000 (0000ms, 0627ms total)
T158C 001:322 JLINK_WriteMem(0x20000164, 0x0400 Bytes, ...) -- Data:  28 46 FF F7 01 FF 13 E0 23 89 A2 88 61 88 28 46 ... -- CPU_WriteMem(1024 bytes @ 0x20000164)  returns 0x400 (0013ms, 0641ms total)
T158C 001:335 JLINK_WriteReg(R0, 0x08001C00)  returns 0x00 (0000ms, 0641ms total)
T158C 001:335 JLINK_WriteReg(R1, 0x00000400)  returns 0x00 (0000ms, 0641ms total)
T158C 001:335 JLINK_WriteReg(R2, 0x20000164)  returns 0x00 (0000ms, 0641ms total)
T158C 001:335 JLINK_WriteReg(R3, 0x00000000)  returns 0x00 (0000ms, 0641ms total)
T158C 001:335 JLINK_WriteReg(R4, 0x00000000)  returns 0x00 (0000ms, 0641ms total)
T158C 001:335 JLINK_WriteReg(R5, 0x00000000)  returns 0x00 (0000ms, 0641ms total)
T158C 001:335 JLINK_WriteReg(R6, 0x00000000)  returns 0x00 (0000ms, 0641ms total)
T158C 001:335 JLINK_WriteReg(R7, 0x00000000)  returns 0x00 (0000ms, 0641ms total)
T158C 001:335 JLINK_WriteReg(R8, 0x00000000)  returns 0x00 (0000ms, 0641ms total)
T158C 001:335 JLINK_WriteReg(R9, 0x20000160)  returns 0x00 (0000ms, 0641ms total)
T158C 001:335 JLINK_WriteReg(R10, 0x00000000)  returns 0x00 (0000ms, 0641ms total)
T158C 001:336 JLINK_WriteReg(R11, 0x00000000)  returns 0x00 (0000ms, 0642ms total)
T158C 001:336 JLINK_WriteReg(R12, 0x00000000)  returns 0x00 (0000ms, 0642ms total)
T158C 001:336 JLINK_WriteReg(R13, 0x20000800)  returns 0x00 (0000ms, 0642ms total)
T158C 001:336 JLINK_WriteReg(R14, 0x20000001)  returns 0x00 (0000ms, 0642ms total)
T158C 001:336 JLINK_WriteReg(R15, 0x200000F4)  returns 0x00 (0000ms, 0642ms total)
T158C 001:336 JLINK_WriteReg(XPSR, 0x01000000)  returns 0x00 (0000ms, 0642ms total)
T158C 001:336 JLINK_WriteReg(MSP, 0x20000800)  returns 0x00 (0000ms, 0642ms total)
T158C 001:336 JLINK_WriteReg(PSP, 0x20000800)  returns 0x00 (0000ms, 0642ms total)
T158C 001:336 JLINK_WriteReg(CFBP, 0x00000000)  returns 0x00 (0000ms, 0642ms total)
T158C 001:336 JLINK_SetBPEx(Addr = 0x20000000, Type = 0xFFFFFFF2)  returns 0x0000000C (0000ms, 0642ms total)
T158C 001:336 JLINK_Go() (0003ms, 0645ms total)
T158C 001:339 JLINK_IsHalted()  returns FALSE (0001ms, 0646ms total)
T158C 001:390 JLINK_IsHalted() -- CPU_ReadMem(2 bytes @ 0x20000000)  returns TRUE (0004ms, 0649ms total)
T158C 001:394 JLINK_ReadReg(R15)  returns 0x20000000 (0000ms, 0645ms total)
T158C 001:394 JLINK_ClrBPEx(BPHandle = 0x0000000C)  returns 0x00 (0000ms, 0645ms total)
T158C 001:394 JLINK_ReadReg(R0)  returns 0x00000000 (0000ms, 0645ms total)
T158C 001:395 JLINK_WriteMem(0x20000164, 0x0400 Bytes, ...) -- Data:  0A 46 00 21 81 8B C1 F3 0E 01 4F F6 FF 73 03 EA ... -- CPU_WriteMem(1024 bytes @ 0x20000164)  returns 0x400 (0013ms, 0658ms total)
T158C 001:408 JLINK_WriteReg(R0, 0x08002000)  returns 0x00 (0000ms, 0658ms total)
T158C 001:408 JLINK_WriteReg(R1, 0x00000400)  returns 0x00 (0000ms, 0658ms total)
T158C 001:408 JLINK_WriteReg(R2, 0x20000164)  returns 0x00 (0000ms, 0658ms total)
T158C 001:408 JLINK_WriteReg(R3, 0x00000000)  returns 0x00 (0000ms, 0658ms total)
T158C 001:408 JLINK_WriteReg(R4, 0x00000000)  returns 0x00 (0000ms, 0658ms total)
T158C 001:408 JLINK_WriteReg(R5, 0x00000000)  returns 0x00 (0000ms, 0658ms total)
T158C 001:408 JLINK_WriteReg(R6, 0x00000000)  returns 0x00 (0000ms, 0658ms total)
T158C 001:408 JLINK_WriteReg(R7, 0x00000000)  returns 0x00 (0000ms, 0658ms total)
T158C 001:408 JLINK_WriteReg(R8, 0x00000000)  returns 0x00 (0000ms, 0658ms total)
T158C 001:408 JLINK_WriteReg(R9, 0x20000160)  returns 0x00 (0000ms, 0658ms total)
T158C 001:408 JLINK_WriteReg(R10, 0x00000000)  returns 0x00 (0000ms, 0658ms total)
T158C 001:408 JLINK_WriteReg(R11, 0x00000000)  returns 0x00 (0000ms, 0658ms total)
T158C 001:408 JLINK_WriteReg(R12, 0x00000000)  returns 0x00 (0001ms, 0659ms total)
T158C 001:409 JLINK_WriteReg(R13, 0x20000800)  returns 0x00 (0000ms, 0659ms total)
T158C 001:409 JLINK_WriteReg(R14, 0x20000001)  returns 0x00 (0000ms, 0659ms total)
T158C 001:409 JLINK_WriteReg(R15, 0x200000F4)  returns 0x00 (0000ms, 0659ms total)
T158C 001:409 JLINK_WriteReg(XPSR, 0x01000000)  returns 0x00 (0000ms, 0659ms total)
T158C 001:409 JLINK_WriteReg(MSP, 0x20000800)  returns 0x00 (0000ms, 0659ms total)
T158C 001:409 JLINK_WriteReg(PSP, 0x20000800)  returns 0x00 (0000ms, 0659ms total)
T158C 001:409 JLINK_WriteReg(CFBP, 0x00000000)  returns 0x00 (0000ms, 0659ms total)
T158C 001:409 JLINK_SetBPEx(Addr = 0x20000000, Type = 0xFFFFFFF2)  returns 0x0000000D (0000ms, 0659ms total)
T158C 001:409 JLINK_Go() (0003ms, 0662ms total)
T158C 001:412 JLINK_IsHalted()  returns FALSE (0001ms, 0663ms total)
T158C 001:463 JLINK_IsHalted() -- CPU_ReadMem(2 bytes @ 0x20000000)  returns TRUE (0005ms, 0667ms total)
T158C 001:468 JLINK_ReadReg(R15)  returns 0x20000000 (0000ms, 0662ms total)
T158C 001:468 JLINK_ClrBPEx(BPHandle = 0x0000000D)  returns 0x00 (0000ms, 0662ms total)
T158C 001:468 JLINK_ReadReg(R0)  returns 0x00000000 (0000ms, 0662ms total)
T158C 001:469 JLINK_WriteMem(0x20000164, 0x0400 Bytes, ...) -- Data:  10 BD 00 21 01 80 41 80 81 80 C1 80 70 47 21 B1 ... -- CPU_WriteMem(1024 bytes @ 0x20000164)  returns 0x400 (0013ms, 0675ms total)
T158C 001:482 JLINK_WriteReg(R0, 0x08002400)  returns 0x00 (0000ms, 0675ms total)
T158C 001:483 JLINK_WriteReg(R1, 0x00000400)  returns 0x00 (0000ms, 0675ms total)
T158C 001:483 JLINK_WriteReg(R2, 0x20000164)  returns 0x00 (0000ms, 0675ms total)
T158C 001:483 JLINK_WriteReg(R3, 0x00000000)  returns 0x00 (0000ms, 0675ms total)
T158C 001:483 JLINK_WriteReg(R4, 0x00000000)  returns 0x00 (0000ms, 0675ms total)
T158C 001:483 JLINK_WriteReg(R5, 0x00000000)  returns 0x00 (0000ms, 0675ms total)
T158C 001:483 JLINK_WriteReg(R6, 0x00000000)  returns 0x00 (0000ms, 0675ms total)
T158C 001:483 JLINK_WriteReg(R7, 0x00000000)  returns 0x00 (0000ms, 0675ms total)
T158C 001:483 JLINK_WriteReg(R8, 0x00000000)  returns 0x00 (0000ms, 0675ms total)
T158C 001:483 JLINK_WriteReg(R9, 0x20000160)  returns 0x00 (0000ms, 0675ms total)
T158C 001:483 JLINK_WriteReg(R10, 0x00000000)  returns 0x00 (0000ms, 0675ms total)
T158C 001:483 JLINK_WriteReg(R11, 0x00000000)  returns 0x00 (0000ms, 0675ms total)
T158C 001:483 JLINK_WriteReg(R12, 0x00000000)  returns 0x00 (0000ms, 0675ms total)
T158C 001:483 JLINK_WriteReg(R13, 0x20000800)  returns 0x00 (0001ms, 0676ms total)
T158C 001:484 JLINK_WriteReg(R14, 0x20000001)  returns 0x00 (0000ms, 0676ms total)
T158C 001:484 JLINK_WriteReg(R15, 0x200000F4)  returns 0x00 (0000ms, 0676ms total)
T158C 001:484 JLINK_WriteReg(XPSR, 0x01000000)  returns 0x00 (0000ms, 0676ms total)
T158C 001:484 JLINK_WriteReg(MSP, 0x20000800)  returns 0x00 (0000ms, 0676ms total)
T158C 001:484 JLINK_WriteReg(PSP, 0x20000800)  returns 0x00 (0000ms, 0676ms total)
T158C 001:484 JLINK_WriteReg(CFBP, 0x00000000)  returns 0x00 (0000ms, 0676ms total)
T158C 001:484 JLINK_SetBPEx(Addr = 0x20000000, Type = 0xFFFFFFF2)  returns 0x0000000E (0000ms, 0676ms total)
T158C 001:484 JLINK_Go() (0003ms, 0679ms total)
T158C 001:487 JLINK_IsHalted()  returns FALSE (0001ms, 0680ms total)
T158C 001:538 JLINK_IsHalted() -- CPU_ReadMem(2 bytes @ 0x20000000)  returns TRUE (0005ms, 0684ms total)
T158C 001:543 JLINK_ReadReg(R15)  returns 0x20000000 (0000ms, 0679ms total)
T158C 001:543 JLINK_ClrBPEx(BPHandle = 0x0000000E)  returns 0x00 (0000ms, 0679ms total)
T158C 001:543 JLINK_ReadReg(R0)  returns 0x00000000 (0000ms, 0679ms total)
T158C 001:544 JLINK_WriteMem(0x20000164, 0x0400 Bytes, ...) -- Data:  A4 49 08 70 03 F0 56 FD FD 20 9E 49 08 70 92 E7 ... -- CPU_WriteMem(1024 bytes @ 0x20000164)  returns 0x400 (0013ms, 0692ms total)
T158C 001:557 JLINK_WriteReg(R0, 0x08002800)  returns 0x00 (0000ms, 0692ms total)
T158C 001:557 JLINK_WriteReg(R1, 0x00000400)  returns 0x00 (0000ms, 0692ms total)
T158C 001:557 JLINK_WriteReg(R2, 0x20000164)  returns 0x00 (0000ms, 0692ms total)
T158C 001:557 JLINK_WriteReg(R3, 0x00000000)  returns 0x00 (0000ms, 0692ms total)
T158C 001:557 JLINK_WriteReg(R4, 0x00000000)  returns 0x00 (0000ms, 0692ms total)
T158C 001:557 JLINK_WriteReg(R5, 0x00000000)  returns 0x00 (0000ms, 0692ms total)
T158C 001:557 JLINK_WriteReg(R6, 0x00000000)  returns 0x00 (0001ms, 0693ms total)
T158C 001:558 JLINK_WriteReg(R7, 0x00000000)  returns 0x00 (0000ms, 0693ms total)
T158C 001:558 JLINK_WriteReg(R8, 0x00000000)  returns 0x00 (0000ms, 0693ms total)
T158C 001:558 JLINK_WriteReg(R9, 0x20000160)  returns 0x00 (0000ms, 0693ms total)
T158C 001:558 JLINK_WriteReg(R10, 0x00000000)  returns 0x00 (0000ms, 0693ms total)
T158C 001:558 JLINK_WriteReg(R11, 0x00000000)  returns 0x00 (0000ms, 0693ms total)
T158C 001:558 JLINK_WriteReg(R12, 0x00000000)  returns 0x00 (0000ms, 0693ms total)
T158C 001:558 JLINK_WriteReg(R13, 0x20000800)  returns 0x00 (0000ms, 0693ms total)
T158C 001:558 JLINK_WriteReg(R14, 0x20000001)  returns 0x00 (0000ms, 0693ms total)
T158C 001:558 JLINK_WriteReg(R15, 0x200000F4)  returns 0x00 (0000ms, 0693ms total)
T158C 001:558 JLINK_WriteReg(XPSR, 0x01000000)  returns 0x00 (0000ms, 0693ms total)
T158C 001:558 JLINK_WriteReg(MSP, 0x20000800)  returns 0x00 (0000ms, 0693ms total)
T158C 001:558 JLINK_WriteReg(PSP, 0x20000800)  returns 0x00 (0000ms, 0693ms total)
T158C 001:558 JLINK_WriteReg(CFBP, 0x00000000)  returns 0x00 (0000ms, 0693ms total)
T158C 001:558 JLINK_SetBPEx(Addr = 0x20000000, Type = 0xFFFFFFF2)  returns 0x0000000F (0000ms, 0693ms total)
T158C 001:558 JLINK_Go() (0003ms, 0696ms total)
T158C 001:561 JLINK_IsHalted()  returns FALSE (0001ms, 0697ms total)
T158C 001:612 JLINK_IsHalted() -- CPU_ReadMem(2 bytes @ 0x20000000)  returns TRUE (0005ms, 0701ms total)
T158C 001:617 JLINK_ReadReg(R15)  returns 0x20000000 (0000ms, 0696ms total)
T158C 001:617 JLINK_ClrBPEx(BPHandle = 0x0000000F)  returns 0x00 (0000ms, 0696ms total)
T158C 001:617 JLINK_ReadReg(R0)  returns 0x00000000 (0000ms, 0696ms total)
T158C 001:619 JLINK_WriteMem(0x20000164, 0x0400 Bytes, ...) -- Data:  68 1C C5 B2 03 2D ED DB 70 BD 00 00 00 38 01 40 ... -- CPU_WriteMem(1024 bytes @ 0x20000164)  returns 0x400 (0013ms, 0709ms total)
T158C 001:632 JLINK_WriteReg(R0, 0x08002C00)  returns 0x00 (0000ms, 0709ms total)
T158C 001:632 JLINK_WriteReg(R1, 0x00000400)  returns 0x00 (0000ms, 0709ms total)
T158C 001:632 JLINK_WriteReg(R2, 0x20000164)  returns 0x00 (0000ms, 0709ms total)
T158C 001:632 JLINK_WriteReg(R3, 0x00000000)  returns 0x00 (0000ms, 0709ms total)
T158C 001:632 JLINK_WriteReg(R4, 0x00000000)  returns 0x00 (0000ms, 0709ms total)
T158C 001:632 JLINK_WriteReg(R5, 0x00000000)  returns 0x00 (0000ms, 0709ms total)
T158C 001:632 JLINK_WriteReg(R6, 0x00000000)  returns 0x00 (0000ms, 0709ms total)
T158C 001:632 JLINK_WriteReg(R7, 0x00000000)  returns 0x00 (0000ms, 0709ms total)
T158C 001:632 JLINK_WriteReg(R8, 0x00000000)  returns 0x00 (0000ms, 0709ms total)
T158C 001:632 JLINK_WriteReg(R9, 0x20000160)  returns 0x00 (0000ms, 0709ms total)
T158C 001:632 JLINK_WriteReg(R10, 0x00000000)  returns 0x00 (0000ms, 0709ms total)
T158C 001:632 JLINK_WriteReg(R11, 0x00000000)  returns 0x00 (0000ms, 0709ms total)
T158C 001:632 JLINK_WriteReg(R12, 0x00000000)  returns 0x00 (0000ms, 0709ms total)
T158C 001:632 JLINK_WriteReg(R13, 0x20000800)  returns 0x00 (0000ms, 0709ms total)
T158C 001:632 JLINK_WriteReg(R14, 0x20000001)  returns 0x00 (0000ms, 0709ms total)
T158C 001:633 JLINK_WriteReg(R15, 0x200000F4)  returns 0x00 (0000ms, 0709ms total)
T158C 001:633 JLINK_WriteReg(XPSR, 0x01000000)  returns 0x00 (0000ms, 0709ms total)
T158C 001:633 JLINK_WriteReg(MSP, 0x20000800)  returns 0x00 (0000ms, 0709ms total)
T158C 001:633 JLINK_WriteReg(PSP, 0x20000800)  returns 0x00 (0000ms, 0709ms total)
T158C 001:633 JLINK_WriteReg(CFBP, 0x00000000)  returns 0x00 (0000ms, 0709ms total)
T158C 001:633 JLINK_SetBPEx(Addr = 0x20000000, Type = 0xFFFFFFF2)  returns 0x00000010 (0000ms, 0709ms total)
T158C 001:633 JLINK_Go() (0003ms, 0712ms total)
T158C 001:636 JLINK_IsHalted()  returns FALSE (0001ms, 0713ms total)
T158C 001:687 JLINK_IsHalted() -- CPU_ReadMem(2 bytes @ 0x20000000)  returns TRUE (0005ms, 0717ms total)
T158C 001:692 JLINK_ReadReg(R15)  returns 0x20000000 (0000ms, 0712ms total)
T158C 001:692 JLINK_ClrBPEx(BPHandle = 0x00000010)  returns 0x00 (0000ms, 0712ms total)
T158C 001:692 JLINK_ReadReg(R0)  returns 0x00000000 (0001ms, 0713ms total)
T158C 001:694 JLINK_WriteMem(0x20000164, 0x0400 Bytes, ...) -- Data:  05 F1 08 00 C5 B2 08 E0 22 46 39 46 28 46 FF F7 ... -- CPU_WriteMem(1024 bytes @ 0x20000164)  returns 0x400 (0013ms, 0726ms total)
T158C 001:707 JLINK_WriteReg(R0, 0x08003000)  returns 0x00 (0000ms, 0726ms total)
T158C 001:707 JLINK_WriteReg(R1, 0x00000400)  returns 0x00 (0000ms, 0726ms total)
T158C 001:707 JLINK_WriteReg(R2, 0x20000164)  returns 0x00 (0000ms, 0726ms total)
T158C 001:707 JLINK_WriteReg(R3, 0x00000000)  returns 0x00 (0000ms, 0726ms total)
T158C 001:707 JLINK_WriteReg(R4, 0x00000000)  returns 0x00 (0000ms, 0726ms total)
T158C 001:707 JLINK_WriteReg(R5, 0x00000000)  returns 0x00 (0000ms, 0726ms total)
T158C 001:707 JLINK_WriteReg(R6, 0x00000000)  returns 0x00 (0001ms, 0727ms total)
T158C 001:708 JLINK_WriteReg(R7, 0x00000000)  returns 0x00 (0000ms, 0727ms total)
T158C 001:708 JLINK_WriteReg(R8, 0x00000000)  returns 0x00 (0000ms, 0727ms total)
T158C 001:708 JLINK_WriteReg(R9, 0x20000160)  returns 0x00 (0000ms, 0727ms total)
T158C 001:708 JLINK_WriteReg(R10, 0x00000000)  returns 0x00 (0000ms, 0727ms total)
T158C 001:708 JLINK_WriteReg(R11, 0x00000000)  returns 0x00 (0000ms, 0727ms total)
T158C 001:708 JLINK_WriteReg(R12, 0x00000000)  returns 0x00 (0000ms, 0727ms total)
T158C 001:708 JLINK_WriteReg(R13, 0x20000800)  returns 0x00 (0000ms, 0727ms total)
T158C 001:708 JLINK_WriteReg(R14, 0x20000001)  returns 0x00 (0000ms, 0727ms total)
T158C 001:708 JLINK_WriteReg(R15, 0x200000F4)  returns 0x00 (0000ms, 0727ms total)
T158C 001:708 JLINK_WriteReg(XPSR, 0x01000000)  returns 0x00 (0000ms, 0727ms total)
T158C 001:708 JLINK_WriteReg(MSP, 0x20000800)  returns 0x00 (0000ms, 0727ms total)
T158C 001:708 JLINK_WriteReg(PSP, 0x20000800)  returns 0x00 (0000ms, 0727ms total)
T158C 001:708 JLINK_WriteReg(CFBP, 0x00000000)  returns 0x00 (0000ms, 0727ms total)
T158C 001:708 JLINK_SetBPEx(Addr = 0x20000000, Type = 0xFFFFFFF2)  returns 0x00000011 (0000ms, 0727ms total)
T158C 001:708 JLINK_Go() (0003ms, 0730ms total)
T158C 001:711 JLINK_IsHalted()  returns FALSE (0001ms, 0731ms total)
T158C 001:762 JLINK_IsHalted() -- CPU_ReadMem(2 bytes @ 0x20000000)  returns TRUE (0005ms, 0735ms total)
T158C 001:767 JLINK_ReadReg(R15)  returns 0x20000000 (0000ms, 0730ms total)
T158C 001:767 JLINK_ClrBPEx(BPHandle = 0x00000011)  returns 0x00 (0000ms, 0730ms total)
T158C 001:767 JLINK_ReadReg(R0)  returns 0x00000000 (0000ms, 0730ms total)
T158C 001:768 JLINK_WriteMem(0x20000164, 0x0400 Bytes, ...) -- Data:  F7 FC 10 BD 2D E9 F0 41 00 26 00 25 00 27 86 48 ... -- CPU_WriteMem(1024 bytes @ 0x20000164)  returns 0x400 (0014ms, 0744ms total)
T158C 001:782 JLINK_WriteReg(R0, 0x08003400)  returns 0x00 (0000ms, 0744ms total)
T158C 001:782 JLINK_WriteReg(R1, 0x00000400)  returns 0x00 (0000ms, 0744ms total)
T158C 001:782 JLINK_WriteReg(R2, 0x20000164)  returns 0x00 (0000ms, 0744ms total)
T158C 001:782 JLINK_WriteReg(R3, 0x00000000)  returns 0x00 (0000ms, 0744ms total)
T158C 001:782 JLINK_WriteReg(R4, 0x00000000)  returns 0x00 (0000ms, 0744ms total)
T158C 001:782 JLINK_WriteReg(R5, 0x00000000)  returns 0x00 (0000ms, 0744ms total)
T158C 001:782 JLINK_WriteReg(R6, 0x00000000)  returns 0x00 (0000ms, 0744ms total)
T158C 001:782 JLINK_WriteReg(R7, 0x00000000)  returns 0x00 (0000ms, 0744ms total)
T158C 001:782 JLINK_WriteReg(R8, 0x00000000)  returns 0x00 (0000ms, 0744ms total)
T158C 001:782 JLINK_WriteReg(R9, 0x20000160)  returns 0x00 (0000ms, 0744ms total)
T158C 001:782 JLINK_WriteReg(R10, 0x00000000)  returns 0x00 (0000ms, 0744ms total)
T158C 001:782 JLINK_WriteReg(R11, 0x00000000)  returns 0x00 (0000ms, 0744ms total)
T158C 001:782 JLINK_WriteReg(R12, 0x00000000)  returns 0x00 (0000ms, 0744ms total)
T158C 001:782 JLINK_WriteReg(R13, 0x20000800)  returns 0x00 (0000ms, 0744ms total)
T158C 001:782 JLINK_WriteReg(R14, 0x20000001)  returns 0x00 (0000ms, 0744ms total)
T158C 001:782 JLINK_WriteReg(R15, 0x200000F4)  returns 0x00 (0000ms, 0744ms total)
T158C 001:782 JLINK_WriteReg(XPSR, 0x01000000)  returns 0x00 (0000ms, 0744ms total)
T158C 001:782 JLINK_WriteReg(MSP, 0x20000800)  returns 0x00 (0001ms, 0745ms total)
T158C 001:783 JLINK_WriteReg(PSP, 0x20000800)  returns 0x00 (0000ms, 0745ms total)
T158C 001:783 JLINK_WriteReg(CFBP, 0x00000000)  returns 0x00 (0000ms, 0745ms total)
T158C 001:783 JLINK_SetBPEx(Addr = 0x20000000, Type = 0xFFFFFFF2)  returns 0x00000012 (0000ms, 0745ms total)
T158C 001:783 JLINK_Go() (0003ms, 0748ms total)
T158C 001:786 JLINK_IsHalted()  returns FALSE (0001ms, 0749ms total)
T158C 001:837 JLINK_IsHalted() -- CPU_ReadMem(2 bytes @ 0x20000000)  returns TRUE (0005ms, 0753ms total)
T158C 001:842 JLINK_ReadReg(R15)  returns 0x20000000 (0001ms, 0749ms total)
